
T1FD0 000:486 SEGGER J-Link V4.96d Log File (0001ms, 0284ms total)
T1FD0 000:486 DLL Compiled: Jan 29 2015 11:45:37 (0001ms, 0284ms total)
T1FD0 000:486 Logging started @ 2017-12-19 19:39 (0001ms, 0284ms total)
T1FD0 000:488 JLINK_SetWarnOutHandler(...) (0000ms, 0285ms total)
T1FD0 000:488 JLINK_OpenEx(...)
Firmware: J-Link ARM V8 compiled Nov 28 2014 13:44:46
Hardware: V8.00
S/N: 17045024
Feature(s): RDI,FlashDL,FlashBP,JFlash,GDBFULL  returns O.K. (0285ms, 0570ms total)
T1FD0 000:773 JLINK_SetErrorOutHandler(...) (0000ms, 0570ms total)
T1FD0 000:773 JLINK_ExecCommand("ProjectFile = "C:\Users\Administrator\Desktop\SX1280_PROJECT\ED\Projects\si4438_gtway_hub\JLinkSettings.ini"", ...)Device "CORTEX-M3" selected.  returns 0x00 (0038ms, 0608ms total)
T1FD0 000:837 JLINK_ExecCommand("Device = STM32F105RC", ...)Device "CORTEX-M3" selected.  returns 0x00 (0022ms, 0630ms total)
T1FD0 000:859 JLINK_ExecCommand("DisableConnectionTimeout", ...)  returns 0x01 (0000ms, 0631ms total)
T1FD0 000:860 JLINK_GetHardwareVersion()  returns 0x13880 (0000ms, 0631ms total)
T1FD0 000:860 JLINK_GetDLLVersion()  returns 49604 (0000ms, 0631ms total)
T1FD0 000:860 JLINK_GetFirmwareString(...) (0000ms, 0631ms total)
T1FD0 001:008 JLINK_GetDLLVersion()  returns 49604 (0000ms, 0631ms total)
T1FD0 001:008 JLINK_GetCompileDateTime() (0000ms, 0631ms total)
T1FD0 001:019 JLINK_GetFirmwareString(...) (0000ms, 0631ms total)
T1FD0 001:028 JLINK_GetHardwareVersion()  returns 0x13880 (0000ms, 0631ms total)
T1FD0 001:064 JLINK_TIF_Select(JLINKARM_TIF_SWD)  returns 0x00 (0002ms, 0633ms total)
T1FD0 001:066 JLINK_SetSpeed(20000) (0000ms, 0633ms total)
T1FD0 001:066 JLINK_GetId() >0x108 TIF>Found SWD-DP with ID 0x1BA01477 >0x0D TIF> >0x21 TIF> >0x0D TIF> >0x28 TIF> >0x0D TIF> >0x28 TIF> >0x0D TIF> >0x21 TIF> >0x0D TIF> >0x28 TIF> >0x0D TIF> >0x21 TIF> >0x0D TIF> >0x21 TIF> >0x0D TIF> >0x21 TIF> >0x0D TIF> >0x21 TIF> >0x0D TIF> >0x28 TIF> >0x0D TIF> >0x28 TIF> >0x0D TIF> >0x21 TIF> >0x0D TIF> >0x28 TIF> >0x0D TIF> >0x28 TIF> >0x0D TIF> >0x28 TIF> >0x0D TIF> >0x21 TIF> >0x0D TIF> >0x21 TIF> >0x0D TIF> >0x28 TIF> >0x0D TIF> >0x21 TIF> >0x0D TIF>
 >0x21 TIF>Found Cortex-M3 r1p1, Little endian. -- CPU_WriteMem(4 bytes @ 0xE0002000) -- CPU_ReadMem(4 bytes @ 0xE000EDF0) -- CPU_ReadMem(4 bytes @ 0xE0002000)FPUnit: 6 code (BP) slots and 2 literal slots -- CPU_ReadMem(4 bytes @ 0xE000EDFC) -- CPU_ReadMem(4 bytes @ 0xE0001000) -- CPU_WriteMem(4 bytes @ 0xE0001000) -- CPU_ReadMem(4 bytes @ 0xE000ED88) -- CPU_WriteMem(4 bytes @ 0xE000ED88) -- CPU_ReadMem(4 bytes @ 0xE000ED88) -- CPU_WriteMem(4 bytes @ 0xE000ED88) -- CPU_ReadMem(4 bytes @ 0xE00FF010)
TPIU fitted. -- CPU_ReadMem(4 bytes @ 0xE00FF014)ETM fitted. -- CPU_ReadMem(4 bytes @ 0xE00FF018) >0x0D TIF> >0x21 TIF>  returns 0x1BA01477 (0076ms, 0709ms total)
T1FD0 001:142 JLINK_GetDLLVersion()  returns 49604 (0000ms, 0709ms total)
T1FD0 001:142 JLINK_CORE_GetFound()  returns 0x30000FF (0001ms, 0710ms total)
T1FD0 001:143 JLINK_GetDebugInfo(0x100) -- Value=0xE00FF003  returns 0x00 (0000ms, 0710ms total)
T1FD0 001:150 JLINK_ReadMem (0xE00FF000, 0x0020 Bytes, ...) -- CPU is running -- CPU_ReadMem(32 bytes @ 0xE00FF000) - Data: 03 F0 F0 FF 03 20 F0 FF 03 30 F0 FF 03 10 F0 FF ...  returns 0x00 (0001ms, 0711ms total)
T1FD0 001:151 JLINK_ReadMem (0xE000EFF0, 0x0010 Bytes, ...) -- CPU is running -- CPU_ReadMem(16 bytes @ 0xE000EFF0) - Data: 0D 00 00 00 E0 00 00 00 05 00 00 00 B1 00 00 00  returns 0x00 (0001ms, 0712ms total)
T1FD0 001:152 JLINK_ReadMem (0xE000EFD0, 0x0020 Bytes, ...) -- CPU is running -- CPU_ReadMem(32 bytes @ 0xE000EFD0) - Data: 04 00 00 00 00 00 00 00 00 00 00 00 00 00 00 00 ...  returns 0x00 (0002ms, 0714ms total)
T1FD0 001:154 JLINK_ReadMem (0xE0001FF0, 0x0010 Bytes, ...) -- CPU is running -- CPU_ReadMem(16 bytes @ 0xE0001FF0) - Data: 0D 00 00 00 E0 00 00 00 05 00 00 00 B1 00 00 00  returns 0x00 (0001ms, 0715ms total)
T1FD0 001:155 JLINK_ReadMem (0xE0001FD0, 0x0020 Bytes, ...) -- CPU is running -- CPU_ReadMem(32 bytes @ 0xE0001FD0) - Data: 04 00 00 00 00 00 00 00 00 00 00 00 00 00 00 00 ...  returns 0x00 (0001ms, 0716ms total)
T1FD0 001:156 JLINK_ReadMem (0xE0002FF0, 0x0010 Bytes, ...) -- CPU is running -- CPU_ReadMem(16 bytes @ 0xE0002FF0) - Data: 0D 00 00 00 E0 00 00 00 05 00 00 00 B1 00 00 00  returns 0x00 (0001ms, 0717ms total)
T1FD0 001:157 JLINK_ReadMem (0xE0002FD0, 0x0020 Bytes, ...) -- CPU is running -- CPU_ReadMem(32 bytes @ 0xE0002FD0) - Data: 04 00 00 00 00 00 00 00 00 00 00 00 00 00 00 00 ...  returns 0x00 (0001ms, 0718ms total)
T1FD0 001:158 JLINK_ReadMem (0xE0000FF0, 0x0010 Bytes, ...) -- CPU is running -- CPU_ReadMem(16 bytes @ 0xE0000FF0) - Data: 0D 00 00 00 E0 00 00 00 05 00 00 00 B1 00 00 00  returns 0x00 (0001ms, 0719ms total)
T1FD0 001:159 JLINK_ReadMem (0xE0000FD0, 0x0020 Bytes, ...) -- CPU is running -- CPU_ReadMem(32 bytes @ 0xE0000FD0) - Data: 04 00 00 00 00 00 00 00 00 00 00 00 00 00 00 00 ...  returns 0x00 (0001ms, 0720ms total)
T1FD0 001:160 JLINK_ReadMem (0xE0040FF0, 0x0010 Bytes, ...) -- CPU is running -- CPU_ReadMem(16 bytes @ 0xE0040FF0) - Data: 0D 00 00 00 90 00 00 00 05 00 00 00 B1 00 00 00  returns 0x00 (0001ms, 0721ms total)
T1FD0 001:161 JLINK_ReadMem (0xE0040FD0, 0x0020 Bytes, ...) -- CPU is running -- CPU_ReadMem(32 bytes @ 0xE0040FD0) - Data: 04 00 00 00 00 00 00 00 00 00 00 00 00 00 00 00 ...  returns 0x00 (0001ms, 0722ms total)
T1FD0 001:162 JLINK_ReadMem (0xE0041FF0, 0x0010 Bytes, ...) -- CPU is running -- CPU_ReadMem(16 bytes @ 0xE0041FF0) - Data: 0D 00 00 00 90 00 00 00 05 00 00 00 B1 00 00 00  returns 0x00 (0001ms, 0723ms total)
T1FD0 001:163 JLINK_ReadMem (0xE0041FD0, 0x0020 Bytes, ...) -- CPU is running -- CPU_ReadMem(32 bytes @ 0xE0041FD0) - Data: 04 00 00 00 00 00 00 00 00 00 00 00 00 00 00 00 ...  returns 0x00 (0001ms, 0724ms total)
T1FD0 001:164 JLINK_ReadMemU32(0xE000ED00, 0x0001 Items, ...) -- CPU is running -- CPU_ReadMem(4 bytes @ 0xE000ED00) - Data: 31 C2 1F 41  returns 0x01 (0001ms, 0725ms total)
T1FD0 001:165 JLINK_SetResetType(JLINKARM_RESET_TYPE_NORMAL)  returns JLINKARM_RESET_TYPE_NORMAL (0000ms, 0725ms total)
T1FD0 001:165 JLINK_Reset() -- CPU is running -- CPU_WriteMem(4 bytes @ 0xE000EDF0) -- CPU is running -- CPU_WriteMem(4 bytes @ 0xE000EDFC) >0x35 TIF> -- CPU is running -- CPU_WriteMem(4 bytes @ 0xE000ED0C) -- CPU is running -- CPU_ReadMem(4 bytes @ 0xE000EDF0) -- CPU is running -- CPU_ReadMem(4 bytes @ 0xE000EDF0) -- CPU is running -- CPU_WriteMem(4 bytes @ 0xE000EDF0) -- CPU is running -- CPU_WriteMem(4 bytes @ 0xE000EDFC) -- CPU is running -- CPU_ReadMem(4 bytes @ 0xE000EDF0)
 -- CPU_WriteMem(4 bytes @ 0xE0002000) -- CPU_ReadMem(4 bytes @ 0xE000EDFC) -- CPU_ReadMem(4 bytes @ 0xE0001000) (0018ms, 0743ms total)
T1FD0 001:183 JLINK_Halt()  returns 0x00 (0001ms, 0744ms total)
T1FD0 001:184 JLINK_IsHalted()  returns TRUE (0000ms, 0744ms total)
T1FD0 001:184 JLINK_ReadMemU32(0xE000EDF0, 0x0001 Items, ...) -- CPU_ReadMem(4 bytes @ 0xE000EDF0) - Data: 03 00 03 00  returns 0x01 (0001ms, 0745ms total)
T1FD0 001:185 JLINK_WriteU32(0xE000EDF0, 0xA05F0003) -- CPU_WriteMem(4 bytes @ 0xE000EDF0)  returns 0x00 (0000ms, 0745ms total)
T1FD0 001:185 JLINK_WriteU32(0xE000EDFC, 0x01000000) -- CPU_WriteMem(4 bytes @ 0xE000EDFC)  returns 0x00 (0001ms, 0746ms total)
T1FD0 001:221 JLINK_GetHWStatus(...)  returns 0x00 (0001ms, 0747ms total)
T1FD0 001:253 JLINK_GetNumBPUnits(Type = 0xFFFFFF00)  returns 0x06 (0000ms, 0747ms total)
T1FD0 001:253 JLINK_GetNumBPUnits(Type = 0xF0)  returns 0x2000 (0000ms, 0747ms total)
T1FD0 001:253 JLINK_GetNumWPUnits()  returns 0x04 (0000ms, 0747ms total)
T1FD0 001:277 JLINK_GetSpeed()  returns 0xFA0 (0000ms, 0747ms total)
T1FD0 001:291 JLINK_ReadMemU32(0xE000E004, 0x0001 Items, ...) -- CPU_ReadMem(4 bytes @ 0xE000E004) - Data: 02 00 00 00  returns 0x01 (0001ms, 0748ms total)
T1FD0 001:292 JLINK_ReadMemU32(0xE000E004, 0x0001 Items, ...) -- CPU_ReadMem(4 bytes @ 0xE000E004) - Data: 02 00 00 00  returns 0x01 (0002ms, 0750ms total)
T1FD0 001:294 JLINK_WriteMem(0xE0001000, 0x001C Bytes, ...) - Data: 01 00 00 00 00 00 00 00 00 00 00 00 00 00 00 00 ... -- CPU_WriteMem(28 bytes @ 0xE0001000)  returns 0x1C (0001ms, 0751ms total)
T1FD0 001:295 JLINK_ReadMem (0xE0001000, 0x001C Bytes, ...) -- CPU_ReadMem(28 bytes @ 0xE0001000) - Data: 01 00 00 40 00 00 00 00 00 00 00 00 00 00 00 00 ...  returns 0x00 (0001ms, 0752ms total)
T1FD0 001:296 JLINK_Halt()  returns 0x00 (0001ms, 0753ms total)
T1FD0 001:297 JLINK_IsHalted()  returns TRUE (0000ms, 0753ms total)
T1FD0 001:302 JLINK_WriteMem(0x20000000, 0x0164 Bytes, ...) - Data: 00 BE 0A E0 0D 78 2D 06 68 40 08 24 40 00 00 D3 ... -- CPU_WriteMem(356 bytes @ 0x20000000)  returns 0x164 (0003ms, 0756ms total)
T1FD0 001:305 JLINK_WriteReg(R0, 0x08000000)  returns 0x00 (0001ms, 0757ms total)
T1FD0 001:306 JLINK_WriteReg(R1, 0x007A1200)  returns 0x00 (0000ms, 0757ms total)
T1FD0 001:306 JLINK_WriteReg(R2, 0x00000001)  returns 0x00 (0000ms, 0757ms total)
T1FD0 001:306 JLINK_WriteReg(R3, 0x00000000)  returns 0x00 (0000ms, 0757ms total)
T1FD0 001:306 JLINK_WriteReg(R4, 0x00000000)  returns 0x00 (0000ms, 0757ms total)
T1FD0 001:306 JLINK_WriteReg(R5, 0x00000000)  returns 0x00 (0000ms, 0757ms total)
T1FD0 001:306 JLINK_WriteReg(R6, 0x00000000)  returns 0x00 (0001ms, 0758ms total)
T1FD0 001:307 JLINK_WriteReg(R7, 0x00000000)  returns 0x00 (0000ms, 0758ms total)
T1FD0 001:307 JLINK_WriteReg(R8, 0x00000000)  returns 0x00 (0000ms, 0758ms total)
T1FD0 001:307 JLINK_WriteReg(R9, 0x20000160)  returns 0x00 (0000ms, 0758ms total)
T1FD0 001:307 JLINK_WriteReg(R10, 0x00000000)  returns 0x00 (0000ms, 0758ms total)
T1FD0 001:307 JLINK_WriteReg(R11, 0x00000000)  returns 0x00 (0000ms, 0758ms total)
T1FD0 001:307 JLINK_WriteReg(R12, 0x00000000)  returns 0x00 (0000ms, 0758ms total)
T1FD0 001:307 JLINK_WriteReg(R13 (SP), 0x20001000)  returns 0x00 (0001ms, 0759ms total)
T1FD0 001:308 JLINK_WriteReg(R14, 0x20000001)  returns 0x00 (0000ms, 0759ms total)
T1FD0 001:308 JLINK_WriteReg(R15 (PC), 0x20000038)  returns 0x00 (0000ms, 0759ms total)
T1FD0 001:308 JLINK_WriteReg(XPSR, 0x01000000)  returns 0x00 (0000ms, 0759ms total)
T1FD0 001:308 JLINK_WriteReg(MSP, 0x20001000)  returns 0x00 (0000ms, 0759ms total)
T1FD0 001:308 JLINK_WriteReg(PSP, 0x20001000)  returns 0x00 (0000ms, 0759ms total)
T1FD0 001:308 JLINK_WriteReg(CFBP, 0x00000000)  returns 0x00 (0000ms, 0759ms total)
T1FD0 001:308 JLINK_SetBPEx(Addr = 0x20000000, Type = 0xFFFFFFF2) -- CPU_ReadMem(4 bytes @ 0x20000000) -- CPU_WriteMem(4 bytes @ 0x20000000) -- CPU_ReadMem(4 bytes @ 0x20000000) -- CPU_WriteMem(4 bytes @ 0x20000000) -- CPU_ReadMem(2 bytes @ 0x20000000)  returns 0x00000001 (0004ms, 0763ms total)
T1FD0 001:312 JLINK_Go() -- CPU_WriteMem(2 bytes @ 0x20000000) -- CPU_WriteMem(4 bytes @ 0xE0002008) -- CPU_WriteMem(4 bytes @ 0xE000200C) -- CPU_WriteMem(4 bytes @ 0xE0002010) -- CPU_WriteMem(4 bytes @ 0xE0002014) -- CPU_WriteMem(4 bytes @ 0xE0002018) -- CPU_WriteMem(4 bytes @ 0xE000201C) -- CPU_WriteMem(4 bytes @ 0xE0001004) (0006ms, 0769ms total)
T1FD0 001:318 JLINK_IsHalted() -- CPU_ReadMem(2 bytes @ 0x20000000)  returns TRUE (0003ms, 0772ms total)
T1FD0 001:321 JLINK_ReadReg(R15 (PC))  returns 0x20000000 (0000ms, 0769ms total)
T1FD0 001:321 JLINK_ClrBPEx(BPHandle = 0x00000001)  returns 0x00 (0000ms, 0769ms total)
T1FD0 001:322 JLINK_ReadReg(R0)  returns 0x00000000 (0000ms, 0770ms total)
T1FD0 001:322 JLINK_WriteReg(R0, 0x08000000)  returns 0x00 (0000ms, 0770ms total)
T1FD0 001:322 JLINK_WriteReg(R1, 0x007A1200)  returns 0x00 (0000ms, 0770ms total)
T1FD0 001:323 JLINK_WriteReg(R2, 0x00000001)  returns 0x00 (0000ms, 0771ms total)
T1FD0 001:323 JLINK_WriteReg(R3, 0x00000000)  returns 0x00 (0000ms, 0771ms total)
T1FD0 001:323 JLINK_WriteReg(R4, 0x00000000)  returns 0x00 (0000ms, 0771ms total)
T1FD0 001:323 JLINK_WriteReg(R5, 0x00000000)  returns 0x00 (0000ms, 0771ms total)
T1FD0 001:323 JLINK_WriteReg(R6, 0x00000000)  returns 0x00 (0000ms, 0771ms total)
T1FD0 001:323 JLINK_WriteReg(R7, 0x00000000)  returns 0x00 (0000ms, 0771ms total)
T1FD0 001:323 JLINK_WriteReg(R8, 0x00000000)  returns 0x00 (0000ms, 0771ms total)
T1FD0 001:323 JLINK_WriteReg(R9, 0x20000160)  returns 0x00 (0001ms, 0772ms total)
T1FD0 001:324 JLINK_WriteReg(R10, 0x00000000)  returns 0x00 (0000ms, 0772ms total)
T1FD0 001:324 JLINK_WriteReg(R11, 0x00000000)  returns 0x00 (0000ms, 0772ms total)
T1FD0 001:324 JLINK_WriteReg(R12, 0x00000000)  returns 0x00 (0000ms, 0772ms total)
T1FD0 001:324 JLINK_WriteReg(R13 (SP), 0x20001000)  returns 0x00 (0000ms, 0772ms total)
T1FD0 001:324 JLINK_WriteReg(R14, 0x20000001)  returns 0x00 (0000ms, 0772ms total)
T1FD0 001:324 JLINK_WriteReg(R15 (PC), 0x2000007C)  returns 0x00 (0000ms, 0772ms total)
T1FD0 001:324 JLINK_WriteReg(XPSR, 0x01000000)  returns 0x00 (0000ms, 0772ms total)
T1FD0 001:325 JLINK_WriteReg(MSP, 0x20001000)  returns 0x00 (0000ms, 0773ms total)
T1FD0 001:325 JLINK_WriteReg(PSP, 0x20001000)  returns 0x00 (0000ms, 0773ms total)
T1FD0 001:325 JLINK_WriteReg(CFBP, 0x00000000)  returns 0x00 (0000ms, 0773ms total)
T1FD0 001:325 JLINK_SetBPEx(Addr = 0x20000000, Type = 0xFFFFFFF2)  returns 0x00000002 (0000ms, 0773ms total)
T1FD0 001:325 JLINK_Go() (0002ms, 0775ms total)
T1FD0 001:327 JLINK_IsHalted()  returns FALSE (0000ms, 0775ms total)
T1FD0 001:601 JLINK_IsHalted() -- CPU_ReadMem(2 bytes @ 0x20000000)  returns TRUE (0003ms, 0778ms total)
T1FD0 001:604 JLINK_ReadReg(R15 (PC))  returns 0x20000000 (0000ms, 0775ms total)
T1FD0 001:605 JLINK_ClrBPEx(BPHandle = 0x00000002)  returns 0x00 (0000ms, 0776ms total)
T1FD0 001:605 JLINK_ReadReg(R0)  returns 0x00000000 (0000ms, 0776ms total)
T1FD0 001:658 JLINK_WriteReg(R0, 0x00000001)  returns 0x00 (0000ms, 0776ms total)
T1FD0 001:658 JLINK_WriteReg(R1, 0x007A1200)  returns 0x00 (0000ms, 0776ms total)
T1FD0 001:658 JLINK_WriteReg(R2, 0x00000001)  returns 0x00 (0000ms, 0776ms total)
T1FD0 001:659 JLINK_WriteReg(R3, 0x00000000)  returns 0x00 (0000ms, 0777ms total)
T1FD0 001:659 JLINK_WriteReg(R4, 0x00000000)  returns 0x00 (0000ms, 0777ms total)
T1FD0 001:659 JLINK_WriteReg(R5, 0x00000000)  returns 0x00 (0000ms, 0777ms total)
T1FD0 001:659 JLINK_WriteReg(R6, 0x00000000)  returns 0x00 (0000ms, 0777ms total)
T1FD0 001:659 JLINK_WriteReg(R7, 0x00000000)  returns 0x00 (0000ms, 0777ms total)
T1FD0 001:659 JLINK_WriteReg(R8, 0x00000000)  returns 0x00 (0000ms, 0777ms total)
T1FD0 001:659 JLINK_WriteReg(R9, 0x20000160)  returns 0x00 (0000ms, 0777ms total)
T1FD0 001:660 JLINK_WriteReg(R10, 0x00000000)  returns 0x00 (0000ms, 0778ms total)
T1FD0 001:660 JLINK_WriteReg(R11, 0x00000000)  returns 0x00 (0000ms, 0778ms total)
T1FD0 001:660 JLINK_WriteReg(R12, 0x00000000)  returns 0x00 (0000ms, 0778ms total)
T1FD0 001:660 JLINK_WriteReg(R13 (SP), 0x20001000)  returns 0x00 (0000ms, 0778ms total)
T1FD0 001:660 JLINK_WriteReg(R14, 0x20000001)  returns 0x00 (0000ms, 0778ms total)
T1FD0 001:660 JLINK_WriteReg(R15 (PC), 0x2000006A)  returns 0x00 (0000ms, 0778ms total)
T1FD0 001:660 JLINK_WriteReg(XPSR, 0x01000000)  returns 0x00 (0000ms, 0778ms total)
T1FD0 001:661 JLINK_WriteReg(MSP, 0x20001000)  returns 0x00 (0000ms, 0779ms total)
T1FD0 001:661 JLINK_WriteReg(PSP, 0x20001000)  returns 0x00 (0000ms, 0779ms total)
T1FD0 001:661 JLINK_WriteReg(CFBP, 0x00000000)  returns 0x00 (0000ms, 0779ms total)
T1FD0 001:661 JLINK_SetBPEx(Addr = 0x20000000, Type = 0xFFFFFFF2)  returns 0x00000003 (0000ms, 0779ms total)
T1FD0 001:661 JLINK_Go() (0002ms, 0781ms total)
T1FD0 001:663 JLINK_IsHalted() -- CPU_ReadMem(2 bytes @ 0x20000000)  returns TRUE (0004ms, 0785ms total)
T1FD0 001:668 JLINK_ReadReg(R15 (PC))  returns 0x20000000 (0000ms, 0781ms total)
T1FD0 001:668 JLINK_ClrBPEx(BPHandle = 0x00000003)  returns 0x00 (0000ms, 0781ms total)
T1FD0 001:668 JLINK_ReadReg(R0)  returns 0x00000000 (0000ms, 0781ms total)
T1FD0 001:682 JLINK_WriteMem(0x20000000, 0x0164 Bytes, ...) - Data: 00 BE 0A E0 0D 78 2D 06 68 40 08 24 40 00 00 D3 ... -- CPU_WriteMem(356 bytes @ 0x20000000)  returns 0x164 (0003ms, 0784ms total)
T1FD0 001:686 JLINK_WriteReg(R0, 0x08000000)  returns 0x00 (0000ms, 0785ms total)
T1FD0 001:686 JLINK_WriteReg(R1, 0x007A1200)  returns 0x00 (0000ms, 0785ms total)
T1FD0 001:686 JLINK_WriteReg(R2, 0x00000002)  returns 0x00 (0000ms, 0785ms total)
T1FD0 001:686 JLINK_WriteReg(R3, 0x00000000)  returns 0x00 (0000ms, 0785ms total)
T1FD0 001:687 JLINK_WriteReg(R4, 0x00000000)  returns 0x00 (0000ms, 0785ms total)
T1FD0 001:687 JLINK_WriteReg(R5, 0x00000000)  returns 0x00 (0000ms, 0785ms total)
T1FD0 001:687 JLINK_WriteReg(R6, 0x00000000)  returns 0x00 (0000ms, 0785ms total)
T1FD0 001:687 JLINK_WriteReg(R7, 0x00000000)  returns 0x00 (0000ms, 0785ms total)
T1FD0 001:687 JLINK_WriteReg(R8, 0x00000000)  returns 0x00 (0000ms, 0785ms total)
T1FD0 001:687 JLINK_WriteReg(R9, 0x20000160)  returns 0x00 (0000ms, 0785ms total)
T1FD0 001:687 JLINK_WriteReg(R10, 0x00000000)  returns 0x00 (0000ms, 0785ms total)
T1FD0 001:687 JLINK_WriteReg(R11, 0x00000000)  returns 0x00 (0001ms, 0786ms total)
T1FD0 001:688 JLINK_WriteReg(R12, 0x00000000)  returns 0x00 (0000ms, 0786ms total)
T1FD0 001:688 JLINK_WriteReg(R13 (SP), 0x20001000)  returns 0x00 (0000ms, 0786ms total)
T1FD0 001:688 JLINK_WriteReg(R14, 0x20000001)  returns 0x00 (0000ms, 0786ms total)
T1FD0 001:688 JLINK_WriteReg(R15 (PC), 0x20000038)  returns 0x00 (0000ms, 0786ms total)
T1FD0 001:688 JLINK_WriteReg(XPSR, 0x01000000)  returns 0x00 (0000ms, 0786ms total)
T1FD0 001:688 JLINK_WriteReg(MSP, 0x20001000)  returns 0x00 (0000ms, 0786ms total)
T1FD0 001:688 JLINK_WriteReg(PSP, 0x20001000)  returns 0x00 (0001ms, 0787ms total)
T1FD0 001:689 JLINK_WriteReg(CFBP, 0x00000000)  returns 0x00 (0000ms, 0787ms total)
T1FD0 001:689 JLINK_SetBPEx(Addr = 0x20000000, Type = 0xFFFFFFF2) -- CPU_ReadMem(4 bytes @ 0x20000000) -- CPU_WriteMem(4 bytes @ 0x20000000) -- CPU_ReadMem(4 bytes @ 0x20000000) -- CPU_WriteMem(4 bytes @ 0x20000000) -- CPU_ReadMem(2 bytes @ 0x20000000)  returns 0x00000004 (0004ms, 0791ms total)
T1FD0 001:693 JLINK_Go() -- CPU_WriteMem(2 bytes @ 0x20000000) (0004ms, 0795ms total)
T1FD0 001:697 JLINK_IsHalted() -- CPU_ReadMem(2 bytes @ 0x20000000)  returns TRUE (0004ms, 0799ms total)
T1FD0 001:701 JLINK_ReadReg(R15 (PC))  returns 0x20000000 (0000ms, 0795ms total)
T1FD0 001:701 JLINK_ClrBPEx(BPHandle = 0x00000004)  returns 0x00 (0000ms, 0795ms total)
T1FD0 001:701 JLINK_ReadReg(R0)  returns 0x00000000 (0000ms, 0795ms total)
T1FD0 001:702 JLINK_WriteMem(0x20000164, 0x0400 Bytes, ...) - Data: E8 76 00 20 85 01 00 08 85 46 00 08 95 46 00 08 ... -- CPU_WriteMem(1024 bytes @ 0x20000164)  returns 0x400 (0007ms, 0802ms total)
T1FD0 001:709 JLINK_WriteReg(R0, 0x08000000)  returns 0x00 (0000ms, 0802ms total)
T1FD0 001:709 JLINK_WriteReg(R1, 0x00000400)  returns 0x00 (0000ms, 0802ms total)
T1FD0 001:709 JLINK_WriteReg(R2, 0x20000164)  returns 0x00 (0001ms, 0803ms total)
T1FD0 001:710 JLINK_WriteReg(R3, 0x00000000)  returns 0x00 (0000ms, 0803ms total)
T1FD0 001:710 JLINK_WriteReg(R4, 0x00000000)  returns 0x00 (0000ms, 0803ms total)
T1FD0 001:710 JLINK_WriteReg(R5, 0x00000000)  returns 0x00 (0000ms, 0803ms total)
T1FD0 001:710 JLINK_WriteReg(R6, 0x00000000)  returns 0x00 (0000ms, 0803ms total)
T1FD0 001:710 JLINK_WriteReg(R7, 0x00000000)  returns 0x00 (0000ms, 0803ms total)
T1FD0 001:710 JLINK_WriteReg(R8, 0x00000000)  returns 0x00 (0000ms, 0803ms total)
T1FD0 001:710 JLINK_WriteReg(R9, 0x20000160)  returns 0x00 (0001ms, 0804ms total)
T1FD0 001:711 JLINK_WriteReg(R10, 0x00000000)  returns 0x00 (0000ms, 0804ms total)
T1FD0 001:711 JLINK_WriteReg(R11, 0x00000000)  returns 0x00 (0000ms, 0804ms total)
T1FD0 001:711 JLINK_WriteReg(R12, 0x00000000)  returns 0x00 (0000ms, 0804ms total)
T1FD0 001:711 JLINK_WriteReg(R13 (SP), 0x20001000)  returns 0x00 (0000ms, 0804ms total)
T1FD0 001:711 JLINK_WriteReg(R14, 0x20000001)  returns 0x00 (0000ms, 0804ms total)
T1FD0 001:711 JLINK_WriteReg(R15 (PC), 0x200000F4)  returns 0x00 (0000ms, 0804ms total)
T1FD0 001:711 JLINK_WriteReg(XPSR, 0x01000000)  returns 0x00 (0000ms, 0804ms total)
T1FD0 001:711 JLINK_WriteReg(MSP, 0x20001000)  returns 0x00 (0001ms, 0805ms total)
T1FD0 001:712 JLINK_WriteReg(PSP, 0x20001000)  returns 0x00 (0000ms, 0805ms total)
T1FD0 001:712 JLINK_WriteReg(CFBP, 0x00000000)  returns 0x00 (0000ms, 0805ms total)
T1FD0 001:712 JLINK_SetBPEx(Addr = 0x20000000, Type = 0xFFFFFFF2)  returns 0x00000005 (0000ms, 0805ms total)
T1FD0 001:712 JLINK_Go() (0002ms, 0807ms total)
T1FD0 001:714 JLINK_IsHalted()  returns FALSE (0001ms, 0808ms total)
T1FD0 001:828 JLINK_IsHalted() -- CPU_ReadMem(2 bytes @ 0x20000000)  returns TRUE (0004ms, 0811ms total)
T1FD0 001:832 JLINK_ReadReg(R15 (PC))  returns 0x20000000 (0000ms, 0807ms total)
T1FD0 001:832 JLINK_ClrBPEx(BPHandle = 0x00000005)  returns 0x00 (0000ms, 0807ms total)
T1FD0 001:832 JLINK_ReadReg(R0)  returns 0x00000000 (0000ms, 0807ms total)
T1FD0 001:838 JLINK_WriteMem(0x20000164, 0x0400 Bytes, ...) - Data: 00 20 02 40 00 F0 FE FF 14 08 01 00 00 00 FF F0 ... -- CPU_WriteMem(1024 bytes @ 0x20000164)  returns 0x400 (0007ms, 0814ms total)
T1FD0 001:845 JLINK_WriteReg(R0, 0x08000400)  returns 0x00 (0000ms, 0814ms total)
T1FD0 001:845 JLINK_WriteReg(R1, 0x00000400)  returns 0x00 (0000ms, 0814ms total)
T1FD0 001:845 JLINK_WriteReg(R2, 0x20000164)  returns 0x00 (0000ms, 0814ms total)
T1FD0 001:845 JLINK_WriteReg(R3, 0x00000000)  returns 0x00 (0000ms, 0814ms total)
T1FD0 001:845 JLINK_WriteReg(R4, 0x00000000)  returns 0x00 (0001ms, 0815ms total)
T1FD0 001:846 JLINK_WriteReg(R5, 0x00000000)  returns 0x00 (0000ms, 0815ms total)
T1FD0 001:846 JLINK_WriteReg(R6, 0x00000000)  returns 0x00 (0000ms, 0815ms total)
T1FD0 001:846 JLINK_WriteReg(R7, 0x00000000)  returns 0x00 (0000ms, 0815ms total)
T1FD0 001:846 JLINK_WriteReg(R8, 0x00000000)  returns 0x00 (0000ms, 0815ms total)
T1FD0 001:846 JLINK_WriteReg(R9, 0x20000160)  returns 0x00 (0000ms, 0815ms total)
T1FD0 001:846 JLINK_WriteReg(R10, 0x00000000)  returns 0x00 (0000ms, 0815ms total)
T1FD0 001:846 JLINK_WriteReg(R11, 0x00000000)  returns 0x00 (0001ms, 0816ms total)
T1FD0 001:847 JLINK_WriteReg(R12, 0x00000000)  returns 0x00 (0000ms, 0816ms total)
T1FD0 001:847 JLINK_WriteReg(R13 (SP), 0x20001000)  returns 0x00 (0000ms, 0816ms total)
T1FD0 001:847 JLINK_WriteReg(R14, 0x20000001)  returns 0x00 (0000ms, 0816ms total)
T1FD0 001:847 JLINK_WriteReg(R15 (PC), 0x200000F4)  returns 0x00 (0000ms, 0816ms total)
T1FD0 001:847 JLINK_WriteReg(XPSR, 0x01000000)  returns 0x00 (0000ms, 0816ms total)
T1FD0 001:847 JLINK_WriteReg(MSP, 0x20001000)  returns 0x00 (0000ms, 0816ms total)
T1FD0 001:848 JLINK_WriteReg(PSP, 0x20001000)  returns 0x00 (0000ms, 0817ms total)
T1FD0 001:848 JLINK_WriteReg(CFBP, 0x00000000)  returns 0x00 (0000ms, 0817ms total)
T1FD0 001:848 JLINK_SetBPEx(Addr = 0x20000000, Type = 0xFFFFFFF2)  returns 0x00000006 (0000ms, 0817ms total)
T1FD0 001:848 JLINK_Go() (0002ms, 0819ms total)
T1FD0 001:850 JLINK_IsHalted()  returns FALSE (0000ms, 0819ms total)
T1FD0 001:992 JLINK_IsHalted() -- CPU_ReadMem(2 bytes @ 0x20000000)  returns TRUE (0003ms, 0822ms total)
T1FD0 001:995 JLINK_ReadReg(R15 (PC))  returns 0x20000000 (0000ms, 0819ms total)
T1FD0 001:996 JLINK_ClrBPEx(BPHandle = 0x00000006)  returns 0x00 (0000ms, 0820ms total)
T1FD0 001:996 JLINK_ReadReg(R0)  returns 0x00000000 (0000ms, 0820ms total)
T1FD0 001:997 JLINK_WriteMem(0x20000164, 0x0400 Bytes, ...) - Data: 40 F0 80 00 E4 49 08 61 70 47 04 20 E2 49 C9 68 ... -- CPU_WriteMem(1024 bytes @ 0x20000164)  returns 0x400 (0007ms, 0827ms total)
T1FD0 002:004 JLINK_WriteReg(R0, 0x08000800)  returns 0x00 (0000ms, 0827ms total)
T1FD0 002:004 JLINK_WriteReg(R1, 0x00000400)  returns 0x00 (0000ms, 0827ms total)
T1FD0 002:004 JLINK_WriteReg(R2, 0x20000164)  returns 0x00 (0001ms, 0828ms total)
T1FD0 002:005 JLINK_WriteReg(R3, 0x00000000)  returns 0x00 (0000ms, 0828ms total)
T1FD0 002:005 JLINK_WriteReg(R4, 0x00000000)  returns 0x00 (0000ms, 0828ms total)
T1FD0 002:005 JLINK_WriteReg(R5, 0x00000000)  returns 0x00 (0000ms, 0828ms total)
T1FD0 002:005 JLINK_WriteReg(R6, 0x00000000)  returns 0x00 (0000ms, 0828ms total)
T1FD0 002:005 JLINK_WriteReg(R7, 0x00000000)  returns 0x00 (0000ms, 0828ms total)
T1FD0 002:005 JLINK_WriteReg(R8, 0x00000000)  returns 0x00 (0001ms, 0829ms total)
T1FD0 002:006 JLINK_WriteReg(R9, 0x20000160)  returns 0x00 (0000ms, 0829ms total)
T1FD0 002:006 JLINK_WriteReg(R10, 0x00000000)  returns 0x00 (0000ms, 0829ms total)
T1FD0 002:006 JLINK_WriteReg(R11, 0x00000000)  returns 0x00 (0000ms, 0829ms total)
T1FD0 002:006 JLINK_WriteReg(R12, 0x00000000)  returns 0x00 (0000ms, 0829ms total)
T1FD0 002:006 JLINK_WriteReg(R13 (SP), 0x20001000)  returns 0x00 (0000ms, 0829ms total)
T1FD0 002:006 JLINK_WriteReg(R14, 0x20000001)  returns 0x00 (0000ms, 0829ms total)
T1FD0 002:007 JLINK_WriteReg(R15 (PC), 0x200000F4)  returns 0x00 (0000ms, 0830ms total)
T1FD0 002:007 JLINK_WriteReg(XPSR, 0x01000000)  returns 0x00 (0000ms, 0830ms total)
T1FD0 002:007 JLINK_WriteReg(MSP, 0x20001000)  returns 0x00 (0000ms, 0830ms total)
T1FD0 002:007 JLINK_WriteReg(PSP, 0x20001000)  returns 0x00 (0000ms, 0830ms total)
T1FD0 002:007 JLINK_WriteReg(CFBP, 0x00000000)  returns 0x00 (0000ms, 0830ms total)
T1FD0 002:007 JLINK_SetBPEx(Addr = 0x20000000, Type = 0xFFFFFFF2)  returns 0x00000007 (0000ms, 0830ms total)
T1FD0 002:007 JLINK_Go() (0002ms, 0832ms total)
T1FD0 002:009 JLINK_IsHalted()  returns FALSE (0001ms, 0833ms total)
T1FD0 002:115 JLINK_IsHalted() -- CPU_ReadMem(2 bytes @ 0x20000000)  returns TRUE (0003ms, 0835ms total)
T1FD0 002:118 JLINK_ReadReg(R15 (PC))  returns 0x20000000 (0000ms, 0832ms total)
T1FD0 002:118 JLINK_ClrBPEx(BPHandle = 0x00000007)  returns 0x00 (0001ms, 0833ms total)
T1FD0 002:119 JLINK_ReadReg(R0)  returns 0x00000000 (0000ms, 0833ms total)
T1FD0 002:120 JLINK_WriteMem(0x20000164, 0x0400 Bytes, ...) - Data: 08 46 00 69 40 F0 10 00 08 61 1D B1 00 20 50 49 ... -- CPU_WriteMem(1024 bytes @ 0x20000164)  returns 0x400 (0007ms, 0840ms total)
T1FD0 002:127 JLINK_WriteReg(R0, 0x08000C00)  returns 0x00 (0000ms, 0840ms total)
T1FD0 002:127 JLINK_WriteReg(R1, 0x00000400)  returns 0x00 (0000ms, 0840ms total)
T1FD0 002:127 JLINK_WriteReg(R2, 0x20000164)  returns 0x00 (0001ms, 0841ms total)
T1FD0 002:128 JLINK_WriteReg(R3, 0x00000000)  returns 0x00 (0000ms, 0841ms total)
T1FD0 002:128 JLINK_WriteReg(R4, 0x00000000)  returns 0x00 (0000ms, 0841ms total)
T1FD0 002:128 JLINK_WriteReg(R5, 0x00000000)  returns 0x00 (0000ms, 0841ms total)
T1FD0 002:128 JLINK_WriteReg(R6, 0x00000000)  returns 0x00 (0000ms, 0841ms total)
T1FD0 002:128 JLINK_WriteReg(R7, 0x00000000)  returns 0x00 (0000ms, 0841ms total)
T1FD0 002:128 JLINK_WriteReg(R8, 0x00000000)  returns 0x00 (0001ms, 0842ms total)
T1FD0 002:129 JLINK_WriteReg(R9, 0x20000160)  returns 0x00 (0000ms, 0842ms total)
T1FD0 002:129 JLINK_WriteReg(R10, 0x00000000)  returns 0x00 (0000ms, 0842ms total)
T1FD0 002:129 JLINK_WriteReg(R11, 0x00000000)  returns 0x00 (0000ms, 0842ms total)
T1FD0 002:129 JLINK_WriteReg(R12, 0x00000000)  returns 0x00 (0000ms, 0842ms total)
T1FD0 002:129 JLINK_WriteReg(R13 (SP), 0x20001000)  returns 0x00 (0000ms, 0842ms total)
T1FD0 002:129 JLINK_WriteReg(R14, 0x20000001)  returns 0x00 (0000ms, 0842ms total)
T1FD0 002:129 JLINK_WriteReg(R15 (PC), 0x200000F4)  returns 0x00 (0001ms, 0843ms total)
T1FD0 002:130 JLINK_WriteReg(XPSR, 0x01000000)  returns 0x00 (0000ms, 0843ms total)
T1FD0 002:130 JLINK_WriteReg(MSP, 0x20001000)  returns 0x00 (0000ms, 0843ms total)
T1FD0 002:130 JLINK_WriteReg(PSP, 0x20001000)  returns 0x00 (0000ms, 0843ms total)
T1FD0 002:130 JLINK_WriteReg(CFBP, 0x00000000)  returns 0x00 (0000ms, 0843ms total)
T1FD0 002:130 JLINK_SetBPEx(Addr = 0x20000000, Type = 0xFFFFFFF2)  returns 0x00000008 (0001ms, 0844ms total)
T1FD0 002:131 JLINK_Go() (0001ms, 0845ms total)
T1FD0 002:132 JLINK_IsHalted()  returns FALSE (0001ms, 0846ms total)
T1FD0 002:264 JLINK_IsHalted() -- CPU_ReadMem(2 bytes @ 0x20000000)  returns TRUE (0004ms, 0849ms total)
T1FD0 002:268 JLINK_ReadReg(R15 (PC))  returns 0x20000000 (0000ms, 0845ms total)
T1FD0 002:268 JLINK_ClrBPEx(BPHandle = 0x00000008)  returns 0x00 (0000ms, 0845ms total)
T1FD0 002:268 JLINK_ReadReg(R0)  returns 0x00000000 (0000ms, 0845ms total)
T1FD0 002:271 JLINK_WriteMem(0x20000164, 0x0400 Bytes, ...) - Data: 06 D1 03 26 06 FA 05 F4 A1 43 41 F0 70 61 06 E0 ... -- CPU_WriteMem(1024 bytes @ 0x20000164)  returns 0x400 (0007ms, 0852ms total)
T1FD0 002:278 JLINK_WriteReg(R0, 0x08001000)  returns 0x00 (0000ms, 0852ms total)
T1FD0 002:278 JLINK_WriteReg(R1, 0x00000400)  returns 0x00 (0000ms, 0852ms total)
T1FD0 002:278 JLINK_WriteReg(R2, 0x20000164)  returns 0x00 (0000ms, 0852ms total)
T1FD0 002:278 JLINK_WriteReg(R3, 0x00000000)  returns 0x00 (0000ms, 0852ms total)
T1FD0 002:278 JLINK_WriteReg(R4, 0x00000000)  returns 0x00 (0001ms, 0853ms total)
T1FD0 002:279 JLINK_WriteReg(R5, 0x00000000)  returns 0x00 (0000ms, 0853ms total)
T1FD0 002:279 JLINK_WriteReg(R6, 0x00000000)  returns 0x00 (0000ms, 0853ms total)
T1FD0 002:279 JLINK_WriteReg(R7, 0x00000000)  returns 0x00 (0000ms, 0853ms total)
T1FD0 002:279 JLINK_WriteReg(R8, 0x00000000)  returns 0x00 (0000ms, 0853ms total)
T1FD0 002:279 JLINK_WriteReg(R9, 0x20000160)  returns 0x00 (0000ms, 0853ms total)
T1FD0 002:279 JLINK_WriteReg(R10, 0x00000000)  returns 0x00 (0001ms, 0854ms total)
T1FD0 002:280 JLINK_WriteReg(R11, 0x00000000)  returns 0x00 (0000ms, 0854ms total)
T1FD0 002:280 JLINK_WriteReg(R12, 0x00000000)  returns 0x00 (0000ms, 0854ms total)
T1FD0 002:280 JLINK_WriteReg(R13 (SP), 0x20001000)  returns 0x00 (0000ms, 0854ms total)
T1FD0 002:280 JLINK_WriteReg(R14, 0x20000001)  returns 0x00 (0000ms, 0854ms total)
T1FD0 002:280 JLINK_WriteReg(R15 (PC), 0x200000F4)  returns 0x00 (0000ms, 0854ms total)
T1FD0 002:280 JLINK_WriteReg(XPSR, 0x01000000)  returns 0x00 (0000ms, 0854ms total)
T1FD0 002:280 JLINK_WriteReg(MSP, 0x20001000)  returns 0x00 (0001ms, 0855ms total)
T1FD0 002:281 JLINK_WriteReg(PSP, 0x20001000)  returns 0x00 (0000ms, 0855ms total)
T1FD0 002:281 JLINK_WriteReg(CFBP, 0x00000000)  returns 0x00 (0000ms, 0855ms total)
T1FD0 002:281 JLINK_SetBPEx(Addr = 0x20000000, Type = 0xFFFFFFF2)  returns 0x00000009 (0000ms, 0855ms total)
T1FD0 002:281 JLINK_Go() (0002ms, 0857ms total)
T1FD0 002:283 JLINK_IsHalted()  returns FALSE (0001ms, 0858ms total)
T1FD0 002:406 JLINK_IsHalted() -- CPU_ReadMem(2 bytes @ 0x20000000)  returns TRUE (0003ms, 0860ms total)
T1FD0 002:409 JLINK_ReadReg(R15 (PC))  returns 0x20000000 (0001ms, 0858ms total)
T1FD0 002:410 JLINK_ClrBPEx(BPHandle = 0x00000009)  returns 0x00 (0000ms, 0858ms total)
T1FD0 002:410 JLINK_ReadReg(R0)  returns 0x00000000 (0000ms, 0858ms total)
T1FD0 002:412 JLINK_WriteMem(0x20000164, 0x0400 Bytes, ...) - Data: F4 F8 08 FB 02 F8 C0 F8 00 80 1B E0 DF F8 D0 80 ... -- CPU_WriteMem(1024 bytes @ 0x20000164)  returns 0x400 (0007ms, 0865ms total)
T1FD0 002:419 JLINK_WriteReg(R0, 0x08001400)  returns 0x00 (0000ms, 0865ms total)
T1FD0 002:419 JLINK_WriteReg(R1, 0x00000400)  returns 0x00 (0000ms, 0865ms total)
T1FD0 002:419 JLINK_WriteReg(R2, 0x20000164)  returns 0x00 (0000ms, 0865ms total)
T1FD0 002:419 JLINK_WriteReg(R3, 0x00000000)  returns 0x00 (0001ms, 0866ms total)
T1FD0 002:420 JLINK_WriteReg(R4, 0x00000000)  returns 0x00 (0000ms, 0866ms total)
T1FD0 002:420 JLINK_WriteReg(R5, 0x00000000)  returns 0x00 (0000ms, 0866ms total)
T1FD0 002:420 JLINK_WriteReg(R6, 0x00000000)  returns 0x00 (0000ms, 0866ms total)
T1FD0 002:420 JLINK_WriteReg(R7, 0x00000000)  returns 0x00 (0000ms, 0866ms total)
T1FD0 002:420 JLINK_WriteReg(R8, 0x00000000)  returns 0x00 (0000ms, 0866ms total)
T1FD0 002:420 JLINK_WriteReg(R9, 0x20000160)  returns 0x00 (0000ms, 0866ms total)
T1FD0 002:420 JLINK_WriteReg(R10, 0x00000000)  returns 0x00 (0001ms, 0867ms total)
T1FD0 002:421 JLINK_WriteReg(R11, 0x00000000)  returns 0x00 (0000ms, 0867ms total)
T1FD0 002:421 JLINK_WriteReg(R12, 0x00000000)  returns 0x00 (0000ms, 0867ms total)
T1FD0 002:421 JLINK_WriteReg(R13 (SP), 0x20001000)  returns 0x00 (0000ms, 0867ms total)
T1FD0 002:421 JLINK_WriteReg(R14, 0x20000001)  returns 0x00 (0000ms, 0867ms total)
T1FD0 002:421 JLINK_WriteReg(R15 (PC), 0x200000F4)  returns 0x00 (0000ms, 0867ms total)
T1FD0 002:421 JLINK_WriteReg(XPSR, 0x01000000)  returns 0x00 (0001ms, 0868ms total)
T1FD0 002:422 JLINK_WriteReg(MSP, 0x20001000)  returns 0x00 (0000ms, 0868ms total)
T1FD0 002:422 JLINK_WriteReg(PSP, 0x20001000)  returns 0x00 (0000ms, 0868ms total)
T1FD0 002:422 JLINK_WriteReg(CFBP, 0x00000000)  returns 0x00 (0000ms, 0868ms total)
T1FD0 002:422 JLINK_SetBPEx(Addr = 0x20000000, Type = 0xFFFFFFF2)  returns 0x0000000A (0000ms, 0868ms total)
T1FD0 002:422 JLINK_Go() (0002ms, 0870ms total)
T1FD0 002:424 JLINK_IsHalted()  returns FALSE (0001ms, 0871ms total)
T1FD0 002:545 JLINK_IsHalted() -- CPU_ReadMem(2 bytes @ 0x20000000)  returns TRUE (0004ms, 0874ms total)
T1FD0 002:549 JLINK_ReadReg(R15 (PC))  returns 0x20000000 (0000ms, 0870ms total)
T1FD0 002:549 JLINK_ClrBPEx(BPHandle = 0x0000000A)  returns 0x00 (0000ms, 0870ms total)
T1FD0 002:549 JLINK_ReadReg(R0)  returns 0x00000000 (0000ms, 0870ms total)
T1FD0 002:551 JLINK_WriteMem(0x20000164, 0x0400 Bytes, ...) - Data: 01 E0 4F F0 02 0B 9D 48 86 42 02 D1 4F F4 00 35 ... -- CPU_WriteMem(1024 bytes @ 0x20000164)  returns 0x400 (0007ms, 0877ms total)
T1FD0 002:558 JLINK_WriteReg(R0, 0x08001800)  returns 0x00 (0000ms, 0877ms total)
T1FD0 002:558 JLINK_WriteReg(R1, 0x00000400)  returns 0x00 (0000ms, 0877ms total)
T1FD0 002:558 JLINK_WriteReg(R2, 0x20000164)  returns 0x00 (0000ms, 0877ms total)
T1FD0 002:559 JLINK_WriteReg(R3, 0x00000000)  returns 0x00 (0000ms, 0878ms total)
T1FD0 002:559 JLINK_WriteReg(R4, 0x00000000)  returns 0x00 (0000ms, 0878ms total)
T1FD0 002:559 JLINK_WriteReg(R5, 0x00000000)  returns 0x00 (0000ms, 0878ms total)
T1FD0 002:559 JLINK_WriteReg(R6, 0x00000000)  returns 0x00 (0000ms, 0878ms total)
T1FD0 002:559 JLINK_WriteReg(R7, 0x00000000)  returns 0x00 (0000ms, 0878ms total)
T1FD0 002:559 JLINK_WriteReg(R8, 0x00000000)  returns 0x00 (0000ms, 0878ms total)
T1FD0 002:559 JLINK_WriteReg(R9, 0x20000160)  returns 0x00 (0001ms, 0879ms total)
T1FD0 002:560 JLINK_WriteReg(R10, 0x00000000)  returns 0x00 (0000ms, 0879ms total)
T1FD0 002:560 JLINK_WriteReg(R11, 0x00000000)  returns 0x00 (0000ms, 0879ms total)
T1FD0 002:560 JLINK_WriteReg(R12, 0x00000000)  returns 0x00 (0000ms, 0879ms total)
T1FD0 002:560 JLINK_WriteReg(R13 (SP), 0x20001000)  returns 0x00 (0000ms, 0879ms total)
T1FD0 002:560 JLINK_WriteReg(R14, 0x20000001)  returns 0x00 (0000ms, 0879ms total)
T1FD0 002:560 JLINK_WriteReg(R15 (PC), 0x200000F4)  returns 0x00 (0000ms, 0879ms total)
T1FD0 002:560 JLINK_WriteReg(XPSR, 0x01000000)  returns 0x00 (0000ms, 0879ms total)
T1FD0 002:561 JLINK_WriteReg(MSP, 0x20001000)  returns 0x00 (0000ms, 0880ms total)
T1FD0 002:561 JLINK_WriteReg(PSP, 0x20001000)  returns 0x00 (0000ms, 0880ms total)
T1FD0 002:561 JLINK_WriteReg(CFBP, 0x00000000)  returns 0x00 (0000ms, 0880ms total)
T1FD0 002:561 JLINK_SetBPEx(Addr = 0x20000000, Type = 0xFFFFFFF2)  returns 0x0000000B (0000ms, 0880ms total)
T1FD0 002:561 JLINK_Go() (0002ms, 0882ms total)
T1FD0 002:564 JLINK_IsHalted()  returns FALSE (0000ms, 0883ms total)
T1FD0 002:672 JLINK_IsHalted() -- CPU_ReadMem(2 bytes @ 0x20000000)  returns TRUE (0004ms, 0887ms total)
T1FD0 002:676 JLINK_ReadReg(R15 (PC))  returns 0x20000000 (0000ms, 0883ms total)
T1FD0 002:676 JLINK_ClrBPEx(BPHandle = 0x0000000B)  returns 0x00 (0000ms, 0883ms total)
T1FD0 002:676 JLINK_ReadReg(R0)  returns 0x00000000 (0000ms, 0883ms total)
T1FD0 002:678 JLINK_WriteMem(0x20000164, 0x0400 Bytes, ...) - Data: B0 48 84 42 09 D1 01 21 48 04 FF F7 B3 FC 00 21 ... -- CPU_WriteMem(1024 bytes @ 0x20000164)  returns 0x400 (0008ms, 0892ms total)
T1FD0 002:686 JLINK_WriteReg(R0, 0x08001C00)  returns 0x00 (0000ms, 0892ms total)
T1FD0 002:686 JLINK_WriteReg(R1, 0x00000400)  returns 0x00 (0000ms, 0892ms total)
T1FD0 002:686 JLINK_WriteReg(R2, 0x20000164)  returns 0x00 (0001ms, 0893ms total)
T1FD0 002:687 JLINK_WriteReg(R3, 0x00000000)  returns 0x00 (0000ms, 0893ms total)
T1FD0 002:687 JLINK_WriteReg(R4, 0x00000000)  returns 0x00 (0000ms, 0893ms total)
T1FD0 002:687 JLINK_WriteReg(R5, 0x00000000)  returns 0x00 (0000ms, 0893ms total)
T1FD0 002:687 JLINK_WriteReg(R6, 0x00000000)  returns 0x00 (0000ms, 0893ms total)
T1FD0 002:687 JLINK_WriteReg(R7, 0x00000000)  returns 0x00 (0000ms, 0893ms total)
T1FD0 002:687 JLINK_WriteReg(R8, 0x00000000)  returns 0x00 (0000ms, 0893ms total)
T1FD0 002:687 JLINK_WriteReg(R9, 0x20000160)  returns 0x00 (0001ms, 0894ms total)
T1FD0 002:688 JLINK_WriteReg(R10, 0x00000000)  returns 0x00 (0000ms, 0894ms total)
T1FD0 002:688 JLINK_WriteReg(R11, 0x00000000)  returns 0x00 (0000ms, 0894ms total)
T1FD0 002:688 JLINK_WriteReg(R12, 0x00000000)  returns 0x00 (0000ms, 0894ms total)
T1FD0 002:688 JLINK_WriteReg(R13 (SP), 0x20001000)  returns 0x00 (0000ms, 0894ms total)
T1FD0 002:688 JLINK_WriteReg(R14, 0x20000001)  returns 0x00 (0000ms, 0894ms total)
T1FD0 002:688 JLINK_WriteReg(R15 (PC), 0x200000F4)  returns 0x00 (0000ms, 0894ms total)
T1FD0 002:688 JLINK_WriteReg(XPSR, 0x01000000)  returns 0x00 (0001ms, 0895ms total)
T1FD0 002:689 JLINK_WriteReg(MSP, 0x20001000)  returns 0x00 (0000ms, 0895ms total)
T1FD0 002:689 JLINK_WriteReg(PSP, 0x20001000)  returns 0x00 (0000ms, 0895ms total)
T1FD0 002:689 JLINK_WriteReg(CFBP, 0x00000000)  returns 0x00 (0000ms, 0895ms total)
T1FD0 002:689 JLINK_SetBPEx(Addr = 0x20000000, Type = 0xFFFFFFF2)  returns 0x0000000C (0000ms, 0895ms total)
T1FD0 002:689 JLINK_Go() (0003ms, 0898ms total)
T1FD0 002:692 JLINK_IsHalted()  returns FALSE (0000ms, 0898ms total)
T1FD0 002:814 JLINK_IsHalted() -- CPU_ReadMem(2 bytes @ 0x20000000)  returns TRUE (0006ms, 0904ms total)
T1FD0 002:820 JLINK_ReadReg(R15 (PC))  returns 0x20000000 (0000ms, 0898ms total)
T1FD0 002:820 JLINK_ClrBPEx(BPHandle = 0x0000000C)  returns 0x00 (0000ms, 0898ms total)
T1FD0 002:820 JLINK_ReadReg(R0)  returns 0x00000000 (0000ms, 0898ms total)
T1FD0 002:827 JLINK_WriteMem(0x20000164, 0x0400 Bytes, ...) - Data: 0E D0 B6 4F B8 42 0B D0 B0 F1 80 4F 08 D0 B4 4F ... -- CPU_WriteMem(1024 bytes @ 0x20000164)  returns 0x400 (0007ms, 0905ms total)
T1FD0 002:834 JLINK_WriteReg(R0, 0x08002000)  returns 0x00 (0000ms, 0905ms total)
T1FD0 002:834 JLINK_WriteReg(R1, 0x00000400)  returns 0x00 (0001ms, 0906ms total)
T1FD0 002:835 JLINK_WriteReg(R2, 0x20000164)  returns 0x00 (0000ms, 0906ms total)
T1FD0 002:835 JLINK_WriteReg(R3, 0x00000000)  returns 0x00 (0000ms, 0906ms total)
T1FD0 002:835 JLINK_WriteReg(R4, 0x00000000)  returns 0x00 (0000ms, 0906ms total)
T1FD0 002:835 JLINK_WriteReg(R5, 0x00000000)  returns 0x00 (0000ms, 0906ms total)
T1FD0 002:835 JLINK_WriteReg(R6, 0x00000000)  returns 0x00 (0001ms, 0907ms total)
T1FD0 002:836 JLINK_WriteReg(R7, 0x00000000)  returns 0x00 (0000ms, 0907ms total)
T1FD0 002:836 JLINK_WriteReg(R8, 0x00000000)  returns 0x00 (0000ms, 0907ms total)
T1FD0 002:836 JLINK_WriteReg(R9, 0x20000160)  returns 0x00 (0000ms, 0907ms total)
T1FD0 002:836 JLINK_WriteReg(R10, 0x00000000)  returns 0x00 (0000ms, 0907ms total)
T1FD0 002:836 JLINK_WriteReg(R11, 0x00000000)  returns 0x00 (0000ms, 0907ms total)
T1FD0 002:837 JLINK_WriteReg(R12, 0x00000000)  returns 0x00 (0000ms, 0908ms total)
T1FD0 002:837 JLINK_WriteReg(R13 (SP), 0x20001000)  returns 0x00 (0000ms, 0908ms total)
T1FD0 002:837 JLINK_WriteReg(R14, 0x20000001)  returns 0x00 (0000ms, 0908ms total)
T1FD0 002:837 JLINK_WriteReg(R15 (PC), 0x200000F4)  returns 0x00 (0000ms, 0908ms total)
T1FD0 002:837 JLINK_WriteReg(XPSR, 0x01000000)  returns 0x00 (0000ms, 0908ms total)
T1FD0 002:837 JLINK_WriteReg(MSP, 0x20001000)  returns 0x00 (0000ms, 0908ms total)
T1FD0 002:837 JLINK_WriteReg(PSP, 0x20001000)  returns 0x00 (0000ms, 0908ms total)
T1FD0 002:837 JLINK_WriteReg(CFBP, 0x00000000)  returns 0x00 (0001ms, 0909ms total)
T1FD0 002:838 JLINK_SetBPEx(Addr = 0x20000000, Type = 0xFFFFFFF2)  returns 0x0000000D (0000ms, 0909ms total)
T1FD0 002:838 JLINK_Go() (0002ms, 0911ms total)
T1FD0 002:840 JLINK_IsHalted()  returns FALSE (0001ms, 0912ms total)
T1FD0 002:954 JLINK_IsHalted() -- CPU_ReadMem(2 bytes @ 0x20000000)  returns TRUE (0003ms, 0914ms total)
T1FD0 002:957 JLINK_ReadReg(R15 (PC))  returns 0x20000000 (0000ms, 0911ms total)
T1FD0 002:957 JLINK_ClrBPEx(BPHandle = 0x0000000D)  returns 0x00 (0001ms, 0912ms total)
T1FD0 002:958 JLINK_ReadReg(R0)  returns 0x00000000 (0000ms, 0912ms total)
T1FD0 002:960 JLINK_WriteMem(0x20000164, 0x0400 Bytes, ...) - Data: 4F F6 F8 70 04 40 44 F0 07 04 4F F6 8F 70 04 40 ... -- CPU_WriteMem(1024 bytes @ 0x20000164)  returns 0x400 (0007ms, 0919ms total)
T1FD0 002:967 JLINK_WriteReg(R0, 0x08002400)  returns 0x00 (0000ms, 0919ms total)
T1FD0 002:967 JLINK_WriteReg(R1, 0x00000400)  returns 0x00 (0000ms, 0919ms total)
T1FD0 002:967 JLINK_WriteReg(R2, 0x20000164)  returns 0x00 (0000ms, 0919ms total)
T1FD0 002:967 JLINK_WriteReg(R3, 0x00000000)  returns 0x00 (0001ms, 0920ms total)
T1FD0 002:968 JLINK_WriteReg(R4, 0x00000000)  returns 0x00 (0000ms, 0920ms total)
T1FD0 002:968 JLINK_WriteReg(R5, 0x00000000)  returns 0x00 (0000ms, 0920ms total)
T1FD0 002:968 JLINK_WriteReg(R6, 0x00000000)  returns 0x00 (0000ms, 0920ms total)
T1FD0 002:968 JLINK_WriteReg(R7, 0x00000000)  returns 0x00 (0000ms, 0920ms total)
T1FD0 002:968 JLINK_WriteReg(R8, 0x00000000)  returns 0x00 (0000ms, 0920ms total)
T1FD0 002:968 JLINK_WriteReg(R9, 0x20000160)  returns 0x00 (0000ms, 0920ms total)
T1FD0 002:968 JLINK_WriteReg(R10, 0x00000000)  returns 0x00 (0001ms, 0921ms total)
T1FD0 002:969 JLINK_WriteReg(R11, 0x00000000)  returns 0x00 (0000ms, 0921ms total)
T1FD0 002:969 JLINK_WriteReg(R12, 0x00000000)  returns 0x00 (0000ms, 0921ms total)
T1FD0 002:969 JLINK_WriteReg(R13 (SP), 0x20001000)  returns 0x00 (0000ms, 0921ms total)
T1FD0 002:969 JLINK_WriteReg(R14, 0x20000001)  returns 0x00 (0000ms, 0921ms total)
T1FD0 002:969 JLINK_WriteReg(R15 (PC), 0x200000F4)  returns 0x00 (0000ms, 0921ms total)
T1FD0 002:969 JLINK_WriteReg(XPSR, 0x01000000)  returns 0x00 (0001ms, 0922ms total)
T1FD0 002:970 JLINK_WriteReg(MSP, 0x20001000)  returns 0x00 (0000ms, 0922ms total)
T1FD0 002:970 JLINK_WriteReg(PSP, 0x20001000)  returns 0x00 (0000ms, 0922ms total)
T1FD0 002:970 JLINK_WriteReg(CFBP, 0x00000000)  returns 0x00 (0000ms, 0922ms total)
T1FD0 002:970 JLINK_SetBPEx(Addr = 0x20000000, Type = 0xFFFFFFF2)  returns 0x0000000E (0000ms, 0922ms total)
T1FD0 002:970 JLINK_Go() (0002ms, 0924ms total)
T1FD0 002:972 JLINK_IsHalted()  returns FALSE (0001ms, 0925ms total)
T1FD0 003:081 JLINK_IsHalted() -- CPU_ReadMem(2 bytes @ 0x20000000)  returns TRUE (0004ms, 0928ms total)
T1FD0 003:085 JLINK_ReadReg(R15 (PC))  returns 0x20000000 (0000ms, 0924ms total)
T1FD0 003:085 JLINK_ClrBPEx(BPHandle = 0x0000000E)  returns 0x00 (0001ms, 0925ms total)
T1FD0 003:086 JLINK_ReadReg(R0)  returns 0x00000000 (0000ms, 0925ms total)
T1FD0 003:087 JLINK_WriteMem(0x20000164, 0x0400 Bytes, ...) - Data: 70 47 02 89 4F F6 7F 73 1A 40 02 81 02 89 0A 43 ... -- CPU_WriteMem(1024 bytes @ 0x20000164)  returns 0x400 (0007ms, 0932ms total)
T1FD0 003:094 JLINK_WriteReg(R0, 0x08002800)  returns 0x00 (0000ms, 0932ms total)
T1FD0 003:094 JLINK_WriteReg(R1, 0x00000400)  returns 0x00 (0000ms, 0932ms total)
T1FD0 003:094 JLINK_WriteReg(R2, 0x20000164)  returns 0x00 (0000ms, 0932ms total)
T1FD0 003:095 JLINK_WriteReg(R3, 0x00000000)  returns 0x00 (0000ms, 0933ms total)
T1FD0 003:095 JLINK_WriteReg(R4, 0x00000000)  returns 0x00 (0000ms, 0933ms total)
T1FD0 003:095 JLINK_WriteReg(R5, 0x00000000)  returns 0x00 (0000ms, 0933ms total)
T1FD0 003:095 JLINK_WriteReg(R6, 0x00000000)  returns 0x00 (0000ms, 0933ms total)
T1FD0 003:095 JLINK_WriteReg(R7, 0x00000000)  returns 0x00 (0000ms, 0933ms total)
T1FD0 003:095 JLINK_WriteReg(R8, 0x00000000)  returns 0x00 (0000ms, 0933ms total)
T1FD0 003:095 JLINK_WriteReg(R9, 0x20000160)  returns 0x00 (0001ms, 0934ms total)
T1FD0 003:096 JLINK_WriteReg(R10, 0x00000000)  returns 0x00 (0000ms, 0934ms total)
T1FD0 003:096 JLINK_WriteReg(R11, 0x00000000)  returns 0x00 (0000ms, 0934ms total)
T1FD0 003:096 JLINK_WriteReg(R12, 0x00000000)  returns 0x00 (0000ms, 0934ms total)
T1FD0 003:096 JLINK_WriteReg(R13 (SP), 0x20001000)  returns 0x00 (0000ms, 0934ms total)
T1FD0 003:096 JLINK_WriteReg(R14, 0x20000001)  returns 0x00 (0000ms, 0934ms total)
T1FD0 003:096 JLINK_WriteReg(R15 (PC), 0x200000F4)  returns 0x00 (0000ms, 0934ms total)
T1FD0 003:096 JLINK_WriteReg(XPSR, 0x01000000)  returns 0x00 (0000ms, 0934ms total)
T1FD0 003:097 JLINK_WriteReg(MSP, 0x20001000)  returns 0x00 (0000ms, 0935ms total)
T1FD0 003:097 JLINK_WriteReg(PSP, 0x20001000)  returns 0x00 (0000ms, 0935ms total)
T1FD0 003:097 JLINK_WriteReg(CFBP, 0x00000000)  returns 0x00 (0000ms, 0935ms total)
T1FD0 003:097 JLINK_SetBPEx(Addr = 0x20000000, Type = 0xFFFFFFF2)  returns 0x0000000F (0000ms, 0935ms total)
T1FD0 003:097 JLINK_Go() (0002ms, 0937ms total)
T1FD0 003:099 JLINK_IsHalted()  returns FALSE (0000ms, 0937ms total)
T1FD0 003:207 JLINK_IsHalted() -- CPU_ReadMem(2 bytes @ 0x20000000)  returns TRUE (0003ms, 0940ms total)
T1FD0 003:210 JLINK_ReadReg(R15 (PC))  returns 0x20000000 (0000ms, 0937ms total)
T1FD0 003:210 JLINK_ClrBPEx(BPHandle = 0x0000000F)  returns 0x00 (0001ms, 0938ms total)
T1FD0 003:211 JLINK_ReadReg(R0)  returns 0x00000000 (0000ms, 0938ms total)
T1FD0 003:212 JLINK_WriteMem(0x20000164, 0x0400 Bytes, ...) - Data: B1 F5 00 7F 00 D1 00 BF 13 88 0B 40 0B B1 01 20 ... -- CPU_WriteMem(1024 bytes @ 0x20000164)  returns 0x400 (0007ms, 0945ms total)
T1FD0 003:219 JLINK_WriteReg(R0, 0x08002C00)  returns 0x00 (0000ms, 0945ms total)
T1FD0 003:219 JLINK_WriteReg(R1, 0x00000400)  returns 0x00 (0000ms, 0945ms total)
T1FD0 003:219 JLINK_WriteReg(R2, 0x20000164)  returns 0x00 (0000ms, 0945ms total)
T1FD0 003:219 JLINK_WriteReg(R3, 0x00000000)  returns 0x00 (0000ms, 0945ms total)
T1FD0 003:220 JLINK_WriteReg(R4, 0x00000000)  returns 0x00 (0000ms, 0946ms total)
T1FD0 003:220 JLINK_WriteReg(R5, 0x00000000)  returns 0x00 (0000ms, 0946ms total)
T1FD0 003:220 JLINK_WriteReg(R6, 0x00000000)  returns 0x00 (0000ms, 0946ms total)
T1FD0 003:220 JLINK_WriteReg(R7, 0x00000000)  returns 0x00 (0000ms, 0946ms total)
T1FD0 003:220 JLINK_WriteReg(R8, 0x00000000)  returns 0x00 (0000ms, 0946ms total)
T1FD0 003:220 JLINK_WriteReg(R9, 0x20000160)  returns 0x00 (0000ms, 0946ms total)
T1FD0 003:220 JLINK_WriteReg(R10, 0x00000000)  returns 0x00 (0001ms, 0947ms total)
T1FD0 003:221 JLINK_WriteReg(R11, 0x00000000)  returns 0x00 (0000ms, 0947ms total)
T1FD0 003:221 JLINK_WriteReg(R12, 0x00000000)  returns 0x00 (0000ms, 0947ms total)
T1FD0 003:221 JLINK_WriteReg(R13 (SP), 0x20001000)  returns 0x00 (0000ms, 0947ms total)
T1FD0 003:221 JLINK_WriteReg(R14, 0x20000001)  returns 0x00 (0000ms, 0947ms total)
T1FD0 003:221 JLINK_WriteReg(R15 (PC), 0x200000F4)  returns 0x00 (0000ms, 0947ms total)
T1FD0 003:221 JLINK_WriteReg(XPSR, 0x01000000)  returns 0x00 (0000ms, 0947ms total)
T1FD0 003:221 JLINK_WriteReg(MSP, 0x20001000)  returns 0x00 (0000ms, 0947ms total)
T1FD0 003:222 JLINK_WriteReg(PSP, 0x20001000)  returns 0x00 (0000ms, 0948ms total)
T1FD0 003:222 JLINK_WriteReg(CFBP, 0x00000000)  returns 0x00 (0000ms, 0948ms total)
T1FD0 003:222 JLINK_SetBPEx(Addr = 0x20000000, Type = 0xFFFFFFF2)  returns 0x00000010 (0000ms, 0948ms total)
T1FD0 003:222 JLINK_Go() (0002ms, 0950ms total)
T1FD0 003:224 JLINK_IsHalted()  returns FALSE (0001ms, 0951ms total)
T1FD0 003:335 JLINK_IsHalted() -- CPU_ReadMem(2 bytes @ 0x20000000)  returns TRUE (0004ms, 0954ms total)
T1FD0 003:339 JLINK_ReadReg(R15 (PC))  returns 0x20000000 (0000ms, 0950ms total)
T1FD0 003:339 JLINK_ClrBPEx(BPHandle = 0x00000010)  returns 0x00 (0000ms, 0950ms total)
T1FD0 003:339 JLINK_ReadReg(R0)  returns 0x00000000 (0000ms, 0950ms total)
T1FD0 003:341 JLINK_WriteMem(0x20000164, 0x0400 Bytes, ...) - Data: 44 1B BC 42 01 DA 20 46 00 E0 38 46 04 46 06 EB ... -- CPU_WriteMem(1024 bytes @ 0x20000164)  returns 0x400 (0007ms, 0958ms total)
T1FD0 003:348 JLINK_WriteReg(R0, 0x08003000)  returns 0x00 (0000ms, 0958ms total)
T1FD0 003:348 JLINK_WriteReg(R1, 0x00000400)  returns 0x00 (0000ms, 0958ms total)
T1FD0 003:348 JLINK_WriteReg(R2, 0x20000164)  returns 0x00 (0000ms, 0958ms total)
T1FD0 003:348 JLINK_WriteReg(R3, 0x00000000)  returns 0x00 (0000ms, 0958ms total)
T1FD0 003:348 JLINK_WriteReg(R4, 0x00000000)  returns 0x00 (0001ms, 0959ms total)
T1FD0 003:349 JLINK_WriteReg(R5, 0x00000000)  returns 0x00 (0000ms, 0959ms total)
T1FD0 003:349 JLINK_WriteReg(R6, 0x00000000)  returns 0x00 (0000ms, 0959ms total)
T1FD0 003:349 JLINK_WriteReg(R7, 0x00000000)  returns 0x00 (0000ms, 0959ms total)
T1FD0 003:349 JLINK_WriteReg(R8, 0x00000000)  returns 0x00 (0000ms, 0959ms total)
T1FD0 003:349 JLINK_WriteReg(R9, 0x20000160)  returns 0x00 (0000ms, 0959ms total)
T1FD0 003:349 JLINK_WriteReg(R10, 0x00000000)  returns 0x00 (0000ms, 0959ms total)
T1FD0 003:349 JLINK_WriteReg(R11, 0x00000000)  returns 0x00 (0001ms, 0960ms total)
T1FD0 003:350 JLINK_WriteReg(R12, 0x00000000)  returns 0x00 (0000ms, 0960ms total)
T1FD0 003:350 JLINK_WriteReg(R13 (SP), 0x20001000)  returns 0x00 (0000ms, 0960ms total)
T1FD0 003:350 JLINK_WriteReg(R14, 0x20000001)  returns 0x00 (0000ms, 0960ms total)
T1FD0 003:350 JLINK_WriteReg(R15 (PC), 0x200000F4)  returns 0x00 (0000ms, 0960ms total)
T1FD0 003:350 JLINK_WriteReg(XPSR, 0x01000000)  returns 0x00 (0000ms, 0960ms total)
T1FD0 003:350 JLINK_WriteReg(MSP, 0x20001000)  returns 0x00 (0000ms, 0960ms total)
T1FD0 003:350 JLINK_WriteReg(PSP, 0x20001000)  returns 0x00 (0000ms, 0960ms total)
T1FD0 003:350 JLINK_WriteReg(CFBP, 0x00000000)  returns 0x00 (0001ms, 0961ms total)
T1FD0 003:351 JLINK_SetBPEx(Addr = 0x20000000, Type = 0xFFFFFFF2)  returns 0x00000011 (0000ms, 0961ms total)
T1FD0 003:351 JLINK_Go() (0002ms, 0963ms total)
T1FD0 003:353 JLINK_IsHalted()  returns FALSE (0000ms, 0963ms total)
T1FD0 003:462 JLINK_IsHalted() -- CPU_ReadMem(2 bytes @ 0x20000000)  returns TRUE (0004ms, 0967ms total)
T1FD0 003:466 JLINK_ReadReg(R15 (PC))  returns 0x20000000 (0000ms, 0963ms total)
T1FD0 003:466 JLINK_ClrBPEx(BPHandle = 0x00000011)  returns 0x00 (0000ms, 0963ms total)
